
T0DE4 000:025 SEGGER J-Link V4.68a Log File (0000ms, 0025ms total)
T0DE4 000:025 DLL Compiled: Apr 12 2013 13:26:50 (0000ms, 0025ms total)
T0DE4 000:025 Logging started @ 2015-05-04 11:44 (0000ms, 0025ms total)
T0DE4 000:025 JLINK_SetWarnOutHandler(...) (0000ms, 0025ms total)
T0DE4 000:025 JLINK_OpenEx(...)
Firmware: J-Link ARM V7 compiled Jun 20 2012 19:45:53
Hardware: V7.00
S/N: 57000442
Feature(s): RDI, FlashBP, FlashDL, JFlash, GDB  returns O.K. (0008ms, 0033ms total)
T0DE4 000:033 JLINK_SetErrorOutHandler(...) (0000ms, 0033ms total)
T0DE4 000:033 JLINK_ExecCommand("ProjectFile = "C:\Game_in_1986BE92QI\JLinkSettings.ini"", ...)
                JLINK_AddMirrorAreaEx(Addr = 0x00000000, Size = 0x00000000) (0000ms, 0000ms total)
              Device "UNSPECIFIED" selected (0 KB flash, 0 KB RAM).  returns 0x00 (0003ms, 0036ms total)
T0DE4 000:037 JLINK_ExecCommand("Device = MDR1986BE92", ...)
                JLINK_AddMirrorAreaEx(Addr = 0x00000000, Size = 0x00000000) (0000ms, 0000ms total)
              Device "UNSPECIFIED" selected (0 KB flash, 0 KB RAM).  returns 0x00 (0001ms, 0037ms total)
T0DE4 000:038 JLINK_ExecCommand("DisableConnectionTimeout", ...)  returns 0x00 (0000ms, 0037ms total)
T0DE4 000:038 JLINK_GetHardwareVersion()  returns 0x11170 (0000ms, 0037ms total)
T0DE4 000:038 JLINK_GetDLLVersion()  returns 46801 (0000ms, 0037ms total)
T0DE4 000:038 JLINK_GetFirmwareString(...) (0000ms, 0037ms total)
T0DE4 000:041 JLINK_GetDLLVersion()  returns 46801 (0000ms, 0037ms total)
T0DE4 000:041 JLINK_GetCompileDateTime() (0000ms, 0037ms total)
T0DE4 000:041 JLINK_GetFirmwareString(...) (0000ms, 0037ms total)
T0DE4 000:042 JLINK_GetHardwareVersion()  returns 0x11170 (0000ms, 0037ms total)
T0DE4 000:045 JLINK_TIF_Select(JLINKARM_TIF_SWD)  returns 0x00 (0002ms, 0039ms total)
T0DE4 000:047 JLINK_SetSpeed(3000) (0000ms, 0039ms total)
T0DE4 000:047 JLINK_GetId() >0x108 TIF>Found SWD-DP with ID 0x2BA01477 >0x0D TIF> >0x21 TIF> >0x0D TIF> >0x28 TIF> >0x0D TIF> >0x28 TIF> >0x0D TIF> >0x21 TIF> >0x0D TIF> >0x21 TIF> >0x0D TIF> >0x28 TIF> >0x0D TIF> >0x21 TIF> >0x0D TIF> >0x21 TIF> >0x0D TIF> >0x21 TIF> >0x0D TIF> >0x21 TIF> >0x0D TIF> >0x28 TIF> >0x0D TIF> >0x21 TIF> >0x0D TIF> >0x28 TIF> >0x0D TIF> >0x28 TIF> >0x0D TIF> >0x21 TIF> >0x0D TIF> >0x21 TIF> >0x0D TIF> >0x28 TIF> >0x0D TIF> >0x21 TIF> >0x0D TIF> >0x21 TIF> >0x0D TIF>
 >0x28 TIF> >0x0D TIF> >0x28 TIF> >0x0D TIF> >0x28 TIF> >0x0D TIF> >0x21 TIF> >0x0D TIF> >0x21 TIF> >0x0D TIF> >0x28 TIF> >0x0D TIF> >0x28 TIF> >0x0D TIF> >0x28 TIF> >0x0D TIF> >0x21 TIF> >0x0D TIF> >0x21 TIF> >0x0D TIF> >0x21 TIF>TPIU fitted. >0x0D TIF> >0x28 TIF> >0x0D TIF> >0x21 TIF> >0x0D TIF> >0x21 TIF> >0x0D TIF> >0x28 TIF> >0x0D TIF> >0x21 TIF> >0x0D TIF> >0x21 TIF>FPUnit: 6 code (BP) slots and 2 literal slots >0x0D TIF> >0x28 TIF> >0x0D TIF> >0x21 TIF> >0x0D TIF> >0x21 TIF> >0x0D TIF> >0x28 TIF>
 >0x0D TIF> >0x21 TIF> >0x0D TIF> >0x21 TIF> >0x0D TIF> >0x28 TIF> >0x0D TIF> >0x21 TIF> >0x0D TIF> >0x21 TIF> >0x0D TIF> >0x28 TIF> >0x0D TIF> >0x21 TIF> >0x0D TIF> >0x21 TIF>Found Cortex-M3 r2p0, Little endian. >0x0D TIF> >0x28 TIF> >0x0D TIF> >0x21 TIF>  returns 0x2BA01477 (0056ms, 0095ms total)
T0DE4 000:103 JLINK_GetDLLVersion()  returns 46801 (0000ms, 0095ms total)
T0DE4 000:103 JLINK_CORE_GetFound()  returns 0x30000FF (0000ms, 0095ms total)
T0DE4 000:103 JLINK_ReadMem (0xE00FF000, 0x0020 Bytes, ...) -- CPU is running -- CPU_ReadMem(32 bytes @ 0xE00FF000) -- Data:  03 F0 F0 FF 03 20 F0 FF 03 30 F0 FF 03 10 F0 FF ...  returns 0x00 (0002ms, 0097ms total)
T0DE4 000:105 JLINK_ReadMem (0xE000EFF0, 0x0010 Bytes, ...) -- CPU is running -- CPU_ReadMem(16 bytes @ 0xE000EFF0) -- Data:  0D 00 00 00 E0 00 00 00 05 00 00 00 B1 00 00 00  returns 0x00 (0001ms, 0098ms total)
T0DE4 000:106 JLINK_ReadMem (0xE000EFD0, 0x0020 Bytes, ...) -- CPU is running -- CPU_ReadMem(32 bytes @ 0xE000EFD0) -- Data:  04 00 00 00 00 00 00 00 00 00 00 00 00 00 00 00 ...  returns 0x00 (0001ms, 0099ms total)
T0DE4 000:107 JLINK_ReadMem (0xE0001FF0, 0x0010 Bytes, ...) -- CPU is running -- CPU_ReadMem(16 bytes @ 0xE0001FF0) -- Data:  0D 00 00 00 E0 00 00 00 05 00 00 00 B1 00 00 00  returns 0x00 (0001ms, 0100ms total)
T0DE4 000:108 JLINK_ReadMem (0xE0001FD0, 0x0020 Bytes, ...) -- CPU is running -- CPU_ReadMem(32 bytes @ 0xE0001FD0) -- Data:  04 00 00 00 00 00 00 00 00 00 00 00 00 00 00 00 ...  returns 0x00 (0001ms, 0101ms total)
T0DE4 000:109 JLINK_ReadMem (0xE0002FF0, 0x0010 Bytes, ...) -- CPU is running -- CPU_ReadMem(16 bytes @ 0xE0002FF0) -- Data:  0D 00 00 00 E0 00 00 00 05 00 00 00 B1 00 00 00  returns 0x00 (0001ms, 0102ms total)
T0DE4 000:110 JLINK_ReadMem (0xE0002FD0, 0x0020 Bytes, ...) -- CPU is running -- CPU_ReadMem(32 bytes @ 0xE0002FD0) -- Data:  04 00 00 00 00 00 00 00 00 00 00 00 00 00 00 00 ...  returns 0x00 (0001ms, 0103ms total)
T0DE4 000:111 JLINK_ReadMem (0xE0000FF0, 0x0010 Bytes, ...) -- CPU is running -- CPU_ReadMem(16 bytes @ 0xE0000FF0) -- Data:  0D 00 00 00 E0 00 00 00 05 00 00 00 B1 00 00 00  returns 0x00 (0001ms, 0104ms total)
T0DE4 000:112 JLINK_ReadMem (0xE0000FD0, 0x0020 Bytes, ...) -- CPU is running -- CPU_ReadMem(32 bytes @ 0xE0000FD0) -- Data:  04 00 00 00 00 00 00 00 00 00 00 00 00 00 00 00 ...  returns 0x00 (0001ms, 0105ms total)
T0DE4 000:113 JLINK_ReadMem (0xE0040FF0, 0x0010 Bytes, ...) -- CPU is running -- CPU_ReadMem(16 bytes @ 0xE0040FF0) -- Data:  0D 00 00 00 90 00 00 00 05 00 00 00 B1 00 00 00  returns 0x00 (0001ms, 0106ms total)
T0DE4 000:114 JLINK_ReadMem (0xE0040FD0, 0x0020 Bytes, ...) -- CPU is running -- CPU_ReadMem(32 bytes @ 0xE0040FD0) -- Data:  04 00 00 00 00 00 00 00 00 00 00 00 00 00 00 00 ...  returns 0x00 (0001ms, 0107ms total)
T0DE4 000:115 JLINK_ReadMemU32(0xE000ED00, 0x0001 Items, ...) -- CPU is running -- CPU_ReadMem(4 bytes @ 0xE000ED00) -- Data:  30 C2 2F 41  returns 0x01 (0001ms, 0108ms total)
T0DE4 000:116 JLINK_SetResetType(JLINKARM_RESET_TYPE_NORMAL)  returns JLINKARM_RESET_TYPE_NORMAL (0000ms, 0108ms total)
T0DE4 000:116 JLINK_Reset() -- CPU_WriteMem(4 bytes @ 0xE0002000) (0011ms, 0119ms total)
T0DE4 000:127 JLINK_Halt()  returns 0x00 (0000ms, 0119ms total)
T0DE4 000:127 JLINK_IsHalted()  returns TRUE (0000ms, 0119ms total)
T0DE4 000:127 JLINK_ReadMemU32(0xE000EDF0, 0x0001 Items, ...) -- CPU_ReadMem(4 bytes @ 0xE000EDF0) -- Data:  03 00 03 00  returns 0x01 (0001ms, 0120ms total)
T0DE4 000:128 JLINK_WriteU32(0xE000EDF0, 0xA05F0003) -- CPU_WriteMem(4 bytes @ 0xE000EDF0)  returns 0x00 (0000ms, 0120ms total)
T0DE4 000:128 JLINK_WriteU32(0xE000EDFC, 0x01000000) -- CPU_WriteMem(4 bytes @ 0xE000EDFC)  returns 0x00 (0001ms, 0121ms total)
T0DE4 000:133 JLINK_GetHWStatus(...)  returns 0x00 (0001ms, 0122ms total)
T0DE4 000:136 JLINK_GetNumBPUnits(Type = 0xFFFFFF00)  returns 0x06 (0000ms, 0122ms total)
T0DE4 000:136 JLINK_GetNumBPUnits(Type = 0xF0)  returns 0x2000 (0000ms, 0122ms total)
T0DE4 000:136 JLINK_GetNumWPUnits()  returns 0x04 (0000ms, 0122ms total)
T0DE4 000:138 JLINK_GetSpeed()  returns 0xBB8 (0000ms, 0122ms total)
T0DE4 000:141 JLINK_ReadMemU32(0xE000E004, 0x0001 Items, ...) -- CPU_ReadMem(4 bytes @ 0xE000E004) -- Data:  00 00 00 00  returns 0x01 (0001ms, 0123ms total)
T0DE4 000:142 JLINK_ReadMemU32(0xE000E004, 0x0001 Items, ...) -- CPU_ReadMem(4 bytes @ 0xE000E004) -- Data:  00 00 00 00  returns 0x01 (0000ms, 0123ms total)
T0DE4 000:142 JLINK_WriteMem(0xE0001000, 0x001C Bytes, ...) -- Data:  01 00 00 00 00 00 00 00 00 00 00 00 00 00 00 00 ... -- CPU_WriteMem(28 bytes @ 0xE0001000)  returns 0x1C (0001ms, 0124ms total)
T0DE4 000:143 JLINK_ReadMem (0xE0001000, 0x001C Bytes, ...) -- CPU_ReadMem(28 bytes @ 0xE0001000) -- Data:  01 00 00 40 00 00 00 00 00 00 00 00 00 00 00 00 ...  returns 0x00 (0002ms, 0126ms total)
T0DE4 000:145 JLINK_Halt()  returns 0x00 (0000ms, 0126ms total)
T0DE4 000:145 JLINK_IsHalted()  returns TRUE (0000ms, 0126ms total)
T0DE4 000:146 JLINK_WriteMem(0x20000000, 0x0234 Bytes, ...) -- Data:  00 BE 0A E0 0D 78 2D 06 68 40 08 24 40 00 00 D3 ... -- CPU_WriteMem(564 bytes @ 0x20000000)  returns 0x234 (0007ms, 0133ms total)
T0DE4 000:153 JLINK_WriteReg(R0, 0x08000000)  returns 0x00 (0000ms, 0133ms total)
T0DE4 000:153 JLINK_WriteReg(R1, 0x00B71B00)  returns 0x00 (0000ms, 0133ms total)
T0DE4 000:153 JLINK_WriteReg(R2, 0x00000001)  returns 0x00 (0000ms, 0133ms total)
T0DE4 000:153 JLINK_WriteReg(R3, 0x00000000)  returns 0x00 (0000ms, 0133ms total)
T0DE4 000:153 JLINK_WriteReg(R4, 0x00000000)  returns 0x00 (0000ms, 0133ms total)
T0DE4 000:153 JLINK_WriteReg(R5, 0x00000000)  returns 0x00 (0000ms, 0133ms total)
T0DE4 000:153 JLINK_WriteReg(R6, 0x00000000)  returns 0x00 (0000ms, 0133ms total)
T0DE4 000:153 JLINK_WriteReg(R7, 0x00000000)  returns 0x00 (0000ms, 0133ms total)
T0DE4 000:153 JLINK_WriteReg(R8, 0x00000000)  returns 0x00 (0000ms, 0133ms total)
T0DE4 000:153 JLINK_WriteReg(R9, 0x20000230)  returns 0x00 (0000ms, 0133ms total)
T0DE4 000:153 JLINK_WriteReg(R10, 0x00000000)  returns 0x00 (0000ms, 0133ms total)
T0DE4 000:153 JLINK_WriteReg(R11, 0x00000000)  returns 0x00 (0000ms, 0133ms total)
T0DE4 000:153 JLINK_WriteReg(R12, 0x00000000)  returns 0x00 (0000ms, 0133ms total)
T0DE4 000:153 JLINK_WriteReg(R13, 0x20001000)  returns 0x00 (0000ms, 0133ms total)
T0DE4 000:153 JLINK_WriteReg(R14, 0x20000001)  returns 0x00 (0000ms, 0133ms total)
T0DE4 000:153 JLINK_WriteReg(R15, 0x20000038)  returns 0x00 (0000ms, 0133ms total)
T0DE4 000:153 JLINK_WriteReg(XPSR, 0x01000000)  returns 0x00 (0000ms, 0133ms total)
T0DE4 000:153 JLINK_WriteReg(MSP, 0x20001000)  returns 0x00 (0000ms, 0133ms total)
T0DE4 000:153 JLINK_WriteReg(PSP, 0x20001000)  returns 0x00 (0000ms, 0133ms total)
T0DE4 000:153 JLINK_WriteReg(CFBP, 0x00000000)  returns 0x00 (0000ms, 0133ms total)
T0DE4 000:153 JLINK_SetBPEx(Addr = 0x20000000, Type = 0xFFFFFFF2) -- CPU_ReadMem(4 bytes @ 0x20000000) -- CPU_WriteMem(4 bytes @ 0x20000000) -- CPU_ReadMem(4 bytes @ 0x20000000) -- CPU_WriteMem(4 bytes @ 0x20000000) -- CPU_ReadMem(2 bytes @ 0x20000000)  returns 0x00000001 (0004ms, 0137ms total)
T0DE4 000:157 JLINK_Go() -- CPU_WriteMem(2 bytes @ 0x20000000) -- CPU_WriteMem(4 bytes @ 0xE0002008) -- CPU_WriteMem(4 bytes @ 0xE000200C) -- CPU_WriteMem(4 bytes @ 0xE0002010) -- CPU_WriteMem(4 bytes @ 0xE0002014) -- CPU_WriteMem(4 bytes @ 0xE0002018) -- CPU_WriteMem(4 bytes @ 0xE000201C) (0006ms, 0143ms total)
T0DE4 000:163 JLINK_IsHalted() -- CPU_ReadMem(2 bytes @ 0x20000000)  returns TRUE (0007ms, 0150ms total)
T0DE4 000:170 JLINK_ReadReg(R15)  returns 0x20000000 (0000ms, 0143ms total)
T0DE4 000:170 JLINK_ClrBPEx(BPHandle = 0x00000001)  returns 0x00 (0000ms, 0143ms total)
T0DE4 000:170 JLINK_ReadReg(R0)  returns 0x00000000 (0000ms, 0143ms total)
T0DE4 000:170 JLINK_WriteReg(R0, 0x08000000)  returns 0x00 (0000ms, 0143ms total)
T0DE4 000:170 JLINK_WriteReg(R1, 0x00001000)  returns 0x00 (0000ms, 0143ms total)
T0DE4 000:170 JLINK_WriteReg(R2, 0x000000FF)  returns 0x00 (0000ms, 0143ms total)
T0DE4 000:170 JLINK_WriteReg(R3, 0x00000000)  returns 0x00 (0000ms, 0143ms total)
T0DE4 000:170 JLINK_WriteReg(R4, 0x00000000)  returns 0x00 (0000ms, 0143ms total)
T0DE4 000:170 JLINK_WriteReg(R5, 0x00000000)  returns 0x00 (0000ms, 0143ms total)
T0DE4 000:170 JLINK_WriteReg(R6, 0x00000000)  returns 0x00 (0000ms, 0143ms total)
T0DE4 000:170 JLINK_WriteReg(R7, 0x00000000)  returns 0x00 (0000ms, 0143ms total)
T0DE4 000:170 JLINK_WriteReg(R8, 0x00000000)  returns 0x00 (0000ms, 0143ms total)
T0DE4 000:170 JLINK_WriteReg(R9, 0x20000230)  returns 0x00 (0000ms, 0143ms total)
T0DE4 000:170 JLINK_WriteReg(R10, 0x00000000)  returns 0x00 (0000ms, 0143ms total)
T0DE4 000:170 JLINK_WriteReg(R11, 0x00000000)  returns 0x00 (0000ms, 0143ms total)
T0DE4 000:170 JLINK_WriteReg(R12, 0x00000000)  returns 0x00 (0000ms, 0143ms total)
T0DE4 000:170 JLINK_WriteReg(R13, 0x20001000)  returns 0x00 (0000ms, 0143ms total)
T0DE4 000:170 JLINK_WriteReg(R14, 0x20000001)  returns 0x00 (0000ms, 0143ms total)
T0DE4 000:170 JLINK_WriteReg(R15, 0x20000020)  returns 0x00 (0000ms, 0143ms total)
T0DE4 000:170 JLINK_WriteReg(XPSR, 0x01000000)  returns 0x00 (0000ms, 0143ms total)
T0DE4 000:170 JLINK_WriteReg(MSP, 0x20001000)  returns 0x00 (0000ms, 0143ms total)
T0DE4 000:170 JLINK_WriteReg(PSP, 0x20001000)  returns 0x00 (0000ms, 0143ms total)
T0DE4 000:170 JLINK_WriteReg(CFBP, 0x00000000)  returns 0x00 (0000ms, 0143ms total)
T0DE4 000:170 JLINK_SetBPEx(Addr = 0x20000000, Type = 0xFFFFFFF2)  returns 0x00000002 (0000ms, 0143ms total)
T0DE4 000:170 JLINK_Go() (0003ms, 0146ms total)
T0DE4 000:173 JLINK_IsHalted() -- CPU_ReadMem(2 bytes @ 0x20000000)  returns TRUE (0007ms, 0153ms total)
T0DE4 000:180 JLINK_ReadReg(R15)  returns 0x20000000 (0000ms, 0146ms total)
T0DE4 000:180 JLINK_ClrBPEx(BPHandle = 0x00000002)  returns 0x00 (0000ms, 0146ms total)
T0DE4 000:180 JLINK_ReadReg(R0)  returns 0x00000001 (0000ms, 0146ms total)
T0DE4 000:180 JLINK_WriteReg(R0, 0x08000000)  returns 0x00 (0000ms, 0146ms total)
T0DE4 000:180 JLINK_WriteReg(R1, 0x00001000)  returns 0x00 (0000ms, 0146ms total)
T0DE4 000:180 JLINK_WriteReg(R2, 0x000000FF)  returns 0x00 (0000ms, 0146ms total)
T0DE4 000:180 JLINK_WriteReg(R3, 0x00000000)  returns 0x00 (0000ms, 0146ms total)
T0DE4 000:180 JLINK_WriteReg(R4, 0x00000000)  returns 0x00 (0000ms, 0146ms total)
T0DE4 000:180 JLINK_WriteReg(R5, 0x00000000)  returns 0x00 (0000ms, 0146ms total)
T0DE4 000:180 JLINK_WriteReg(R6, 0x00000000)  returns 0x00 (0000ms, 0146ms total)
T0DE4 000:180 JLINK_WriteReg(R7, 0x00000000)  returns 0x00 (0000ms, 0146ms total)
T0DE4 000:180 JLINK_WriteReg(R8, 0x00000000)  returns 0x00 (0000ms, 0146ms total)
T0DE4 000:180 JLINK_WriteReg(R9, 0x20000230)  returns 0x00 (0000ms, 0146ms total)
T0DE4 000:180 JLINK_WriteReg(R10, 0x00000000)  returns 0x00 (0000ms, 0146ms total)
T0DE4 000:180 JLINK_WriteReg(R11, 0x00000000)  returns 0x00 (0000ms, 0146ms total)
T0DE4 000:180 JLINK_WriteReg(R12, 0x00000000)  returns 0x00 (0000ms, 0146ms total)
T0DE4 000:180 JLINK_WriteReg(R13, 0x20001000)  returns 0x00 (0000ms, 0146ms total)
T0DE4 000:180 JLINK_WriteReg(R14, 0x20000001)  returns 0x00 (0000ms, 0146ms total)
T0DE4 000:180 JLINK_WriteReg(R15, 0x200000EC)  returns 0x00 (0000ms, 0146ms total)
T0DE4 000:180 JLINK_WriteReg(XPSR, 0x01000000)  returns 0x00 (0000ms, 0146ms total)
T0DE4 000:180 JLINK_WriteReg(MSP, 0x20001000)  returns 0x00 (0000ms, 0146ms total)
T0DE4 000:180 JLINK_WriteReg(PSP, 0x20001000)  returns 0x00 (0000ms, 0146ms total)
T0DE4 000:180 JLINK_WriteReg(CFBP, 0x00000000)  returns 0x00 (0000ms, 0146ms total)
T0DE4 000:180 JLINK_SetBPEx(Addr = 0x20000000, Type = 0xFFFFFFF2)  returns 0x00000003 (0000ms, 0146ms total)
T0DE4 000:180 JLINK_Go() (0001ms, 0147ms total)
T0DE4 000:181 JLINK_IsHalted()  returns FALSE (0001ms, 0148ms total)
T0DE4 000:201 JLINK_IsHalted() -- CPU_ReadMem(2 bytes @ 0x20000000)  returns TRUE (0006ms, 0153ms total)
T0DE4 000:207 JLINK_ReadReg(R15)  returns 0x20000000 (0000ms, 0147ms total)
T0DE4 000:207 JLINK_ClrBPEx(BPHandle = 0x00000003)  returns 0x00 (0000ms, 0147ms total)
T0DE4 000:207 JLINK_ReadReg(R0)  returns 0x00000000 (0000ms, 0147ms total)
T0DE4 000:208 JLINK_WriteReg(R0, 0x08001000)  returns 0x00 (0000ms, 0147ms total)
T0DE4 000:208 JLINK_WriteReg(R1, 0x00001000)  returns 0x00 (0000ms, 0147ms total)
T0DE4 000:208 JLINK_WriteReg(R2, 0x000000FF)  returns 0x00 (0000ms, 0147ms total)
T0DE4 000:208 JLINK_WriteReg(R3, 0x00000000)  returns 0x00 (0000ms, 0147ms total)
T0DE4 000:208 JLINK_WriteReg(R4, 0x00000000)  returns 0x00 (0000ms, 0147ms total)
T0DE4 000:208 JLINK_WriteReg(R5, 0x00000000)  returns 0x00 (0000ms, 0147ms total)
T0DE4 000:208 JLINK_WriteReg(R6, 0x00000000)  returns 0x00 (0000ms, 0147ms total)
T0DE4 000:208 JLINK_WriteReg(R7, 0x00000000)  returns 0x00 (0000ms, 0147ms total)
T0DE4 000:208 JLINK_WriteReg(R8, 0x00000000)  returns 0x00 (0000ms, 0147ms total)
T0DE4 000:208 JLINK_WriteReg(R9, 0x20000230)  returns 0x00 (0000ms, 0147ms total)
T0DE4 000:208 JLINK_WriteReg(R10, 0x00000000)  returns 0x00 (0000ms, 0147ms total)
T0DE4 000:208 JLINK_WriteReg(R11, 0x00000000)  returns 0x00 (0000ms, 0147ms total)
T0DE4 000:208 JLINK_WriteReg(R12, 0x00000000)  returns 0x00 (0000ms, 0147ms total)
T0DE4 000:208 JLINK_WriteReg(R13, 0x20001000)  returns 0x00 (0000ms, 0147ms total)
T0DE4 000:208 JLINK_WriteReg(R14, 0x20000001)  returns 0x00 (0000ms, 0147ms total)
T0DE4 000:208 JLINK_WriteReg(R15, 0x20000020)  returns 0x00 (0000ms, 0147ms total)
T0DE4 000:208 JLINK_WriteReg(XPSR, 0x01000000)  returns 0x00 (0000ms, 0147ms total)
T0DE4 000:208 JLINK_WriteReg(MSP, 0x20001000)  returns 0x00 (0000ms, 0147ms total)
T0DE4 000:208 JLINK_WriteReg(PSP, 0x20001000)  returns 0x00 (0000ms, 0147ms total)
T0DE4 000:208 JLINK_WriteReg(CFBP, 0x00000000)  returns 0x00 (0000ms, 0147ms total)
T0DE4 000:208 JLINK_SetBPEx(Addr = 0x20000000, Type = 0xFFFFFFF2)  returns 0x00000004 (0000ms, 0147ms total)
T0DE4 000:208 JLINK_Go() (0002ms, 0149ms total)
T0DE4 000:210 JLINK_IsHalted() -- CPU_ReadMem(2 bytes @ 0x20000000)  returns TRUE (0007ms, 0156ms total)
T0DE4 000:217 JLINK_ReadReg(R15)  returns 0x20000000 (0000ms, 0149ms total)
T0DE4 000:217 JLINK_ClrBPEx(BPHandle = 0x00000004)  returns 0x00 (0000ms, 0149ms total)
T0DE4 000:217 JLINK_ReadReg(R0)  returns 0x00000001 (0000ms, 0149ms total)
T0DE4 000:217 JLINK_WriteReg(R0, 0x08001000)  returns 0x00 (0000ms, 0149ms total)
T0DE4 000:217 JLINK_WriteReg(R1, 0x00001000)  returns 0x00 (0000ms, 0149ms total)
T0DE4 000:217 JLINK_WriteReg(R2, 0x000000FF)  returns 0x00 (0000ms, 0149ms total)
T0DE4 000:217 JLINK_WriteReg(R3, 0x00000000)  returns 0x00 (0000ms, 0149ms total)
T0DE4 000:217 JLINK_WriteReg(R4, 0x00000000)  returns 0x00 (0000ms, 0149ms total)
T0DE4 000:217 JLINK_WriteReg(R5, 0x00000000)  returns 0x00 (0000ms, 0149ms total)
T0DE4 000:217 JLINK_WriteReg(R6, 0x00000000)  returns 0x00 (0000ms, 0149ms total)
T0DE4 000:217 JLINK_WriteReg(R7, 0x00000000)  returns 0x00 (0000ms, 0149ms total)
T0DE4 000:217 JLINK_WriteReg(R8, 0x00000000)  returns 0x00 (0000ms, 0149ms total)
T0DE4 000:217 JLINK_WriteReg(R9, 0x20000230)  returns 0x00 (0000ms, 0149ms total)
T0DE4 000:217 JLINK_WriteReg(R10, 0x00000000)  returns 0x00 (0000ms, 0149ms total)
T0DE4 000:217 JLINK_WriteReg(R11, 0x00000000)  returns 0x00 (0000ms, 0149ms total)
T0DE4 000:217 JLINK_WriteReg(R12, 0x00000000)  returns 0x00 (0000ms, 0149ms total)
T0DE4 000:217 JLINK_WriteReg(R13, 0x20001000)  returns 0x00 (0000ms, 0149ms total)
T0DE4 000:217 JLINK_WriteReg(R14, 0x20000001)  returns 0x00 (0000ms, 0149ms total)
T0DE4 000:217 JLINK_WriteReg(R15, 0x200000EC)  returns 0x00 (0000ms, 0149ms total)
T0DE4 000:217 JLINK_WriteReg(XPSR, 0x01000000)  returns 0x00 (0000ms, 0149ms total)
T0DE4 000:217 JLINK_WriteReg(MSP, 0x20001000)  returns 0x00 (0000ms, 0149ms total)
T0DE4 000:217 JLINK_WriteReg(PSP, 0x20001000)  returns 0x00 (0000ms, 0149ms total)
T0DE4 000:217 JLINK_WriteReg(CFBP, 0x00000000)  returns 0x00 (0000ms, 0149ms total)
T0DE4 000:217 JLINK_SetBPEx(Addr = 0x20000000, Type = 0xFFFFFFF2)  returns 0x00000005 (0000ms, 0149ms total)
T0DE4 000:217 JLINK_Go() (0002ms, 0151ms total)
T0DE4 000:219 JLINK_IsHalted()  returns FALSE (0000ms, 0151ms total)
T0DE4 000:222 JLINK_IsHalted()  returns FALSE (0001ms, 0152ms total)
T0DE4 000:225 JLINK_IsHalted()  returns FALSE (0000ms, 0151ms total)
T0DE4 000:228 JLINK_IsHalted()  returns FALSE (0000ms, 0151ms total)
T0DE4 000:230 JLINK_IsHalted()  returns FALSE (0000ms, 0151ms total)
T0DE4 000:232 JLINK_IsHalted() -- CPU_ReadMem(2 bytes @ 0x20000000)  returns TRUE (0006ms, 0157ms total)
T0DE4 000:238 JLINK_ReadReg(R15)  returns 0x20000000 (0000ms, 0151ms total)
T0DE4 000:238 JLINK_ClrBPEx(BPHandle = 0x00000005)  returns 0x00 (0000ms, 0151ms total)
T0DE4 000:238 JLINK_ReadReg(R0)  returns 0x00000000 (0000ms, 0151ms total)
T0DE4 000:238 JLINK_WriteReg(R0, 0x08002000)  returns 0x00 (0000ms, 0151ms total)
T0DE4 000:238 JLINK_WriteReg(R1, 0x00001000)  returns 0x00 (0000ms, 0151ms total)
T0DE4 000:238 JLINK_WriteReg(R2, 0x000000FF)  returns 0x00 (0000ms, 0151ms total)
T0DE4 000:238 JLINK_WriteReg(R3, 0x00000000)  returns 0x00 (0000ms, 0151ms total)
T0DE4 000:238 JLINK_WriteReg(R4, 0x00000000)  returns 0x00 (0000ms, 0151ms total)
T0DE4 000:238 JLINK_WriteReg(R5, 0x00000000)  returns 0x00 (0000ms, 0151ms total)
T0DE4 000:238 JLINK_WriteReg(R6, 0x00000000)  returns 0x00 (0000ms, 0151ms total)
T0DE4 000:238 JLINK_WriteReg(R7, 0x00000000)  returns 0x00 (0000ms, 0151ms total)
T0DE4 000:238 JLINK_WriteReg(R8, 0x00000000)  returns 0x00 (0000ms, 0151ms total)
T0DE4 000:238 JLINK_WriteReg(R9, 0x20000230)  returns 0x00 (0000ms, 0151ms total)
T0DE4 000:238 JLINK_WriteReg(R10, 0x00000000)  returns 0x00 (0000ms, 0151ms total)
T0DE4 000:238 JLINK_WriteReg(R11, 0x00000000)  returns 0x00 (0000ms, 0151ms total)
T0DE4 000:238 JLINK_WriteReg(R12, 0x00000000)  returns 0x00 (0000ms, 0151ms total)
T0DE4 000:238 JLINK_WriteReg(R13, 0x20001000)  returns 0x00 (0000ms, 0151ms total)
T0DE4 000:238 JLINK_WriteReg(R14, 0x20000001)  returns 0x00 (0000ms, 0151ms total)
T0DE4 000:238 JLINK_WriteReg(R15, 0x20000020)  returns 0x00 (0000ms, 0151ms total)
T0DE4 000:238 JLINK_WriteReg(XPSR, 0x01000000)  returns 0x00 (0000ms, 0151ms total)
T0DE4 000:238 JLINK_WriteReg(MSP, 0x20001000)  returns 0x00 (0000ms, 0151ms total)
T0DE4 000:238 JLINK_WriteReg(PSP, 0x20001000)  returns 0x00 (0000ms, 0151ms total)
T0DE4 000:238 JLINK_WriteReg(CFBP, 0x00000000)  returns 0x00 (0000ms, 0151ms total)
T0DE4 000:238 JLINK_SetBPEx(Addr = 0x20000000, Type = 0xFFFFFFF2)  returns 0x00000006 (0000ms, 0151ms total)
T0DE4 000:238 JLINK_Go() (0003ms, 0154ms total)
T0DE4 000:241 JLINK_IsHalted() -- CPU_ReadMem(2 bytes @ 0x20000000)  returns TRUE (0006ms, 0160ms total)
T0DE4 000:247 JLINK_ReadReg(R15)  returns 0x20000000 (0000ms, 0154ms total)
T0DE4 000:247 JLINK_ClrBPEx(BPHandle = 0x00000006)  returns 0x00 (0000ms, 0154ms total)
T0DE4 000:247 JLINK_ReadReg(R0)  returns 0x00000001 (0000ms, 0154ms total)
T0DE4 000:247 JLINK_WriteReg(R0, 0x08002000)  returns 0x00 (0000ms, 0154ms total)
T0DE4 000:247 JLINK_WriteReg(R1, 0x00001000)  returns 0x00 (0000ms, 0154ms total)
T0DE4 000:247 JLINK_WriteReg(R2, 0x000000FF)  returns 0x00 (0000ms, 0154ms total)
T0DE4 000:247 JLINK_WriteReg(R3, 0x00000000)  returns 0x00 (0000ms, 0154ms total)
T0DE4 000:247 JLINK_WriteReg(R4, 0x00000000)  returns 0x00 (0000ms, 0154ms total)
T0DE4 000:247 JLINK_WriteReg(R5, 0x00000000)  returns 0x00 (0000ms, 0154ms total)
T0DE4 000:247 JLINK_WriteReg(R6, 0x00000000)  returns 0x00 (0000ms, 0154ms total)
T0DE4 000:247 JLINK_WriteReg(R7, 0x00000000)  returns 0x00 (0000ms, 0154ms total)
T0DE4 000:247 JLINK_WriteReg(R8, 0x00000000)  returns 0x00 (0000ms, 0154ms total)
T0DE4 000:247 JLINK_WriteReg(R9, 0x20000230)  returns 0x00 (0000ms, 0154ms total)
T0DE4 000:247 JLINK_WriteReg(R10, 0x00000000)  returns 0x00 (0000ms, 0154ms total)
T0DE4 000:247 JLINK_WriteReg(R11, 0x00000000)  returns 0x00 (0000ms, 0154ms total)
T0DE4 000:247 JLINK_WriteReg(R12, 0x00000000)  returns 0x00 (0000ms, 0154ms total)
T0DE4 000:247 JLINK_WriteReg(R13, 0x20001000)  returns 0x00 (0000ms, 0154ms total)
T0DE4 000:247 JLINK_WriteReg(R14, 0x20000001)  returns 0x00 (0000ms, 0154ms total)
T0DE4 000:247 JLINK_WriteReg(R15, 0x200000EC)  returns 0x00 (0000ms, 0154ms total)
T0DE4 000:247 JLINK_WriteReg(XPSR, 0x01000000)  returns 0x00 (0000ms, 0154ms total)
T0DE4 000:247 JLINK_WriteReg(MSP, 0x20001000)  returns 0x00 (0000ms, 0154ms total)
T0DE4 000:247 JLINK_WriteReg(PSP, 0x20001000)  returns 0x00 (0000ms, 0154ms total)
T0DE4 000:247 JLINK_WriteReg(CFBP, 0x00000000)  returns 0x00 (0000ms, 0154ms total)
T0DE4 000:247 JLINK_SetBPEx(Addr = 0x20000000, Type = 0xFFFFFFF2)  returns 0x00000007 (0000ms, 0154ms total)
T0DE4 000:247 JLINK_Go() (0002ms, 0156ms total)
T0DE4 000:249 JLINK_IsHalted()  returns FALSE (0001ms, 0157ms total)
T0DE4 000:254 JLINK_IsHalted()  returns FALSE (0001ms, 0157ms total)
T0DE4 000:257 JLINK_IsHalted()  returns FALSE (0000ms, 0156ms total)
T0DE4 000:259 JLINK_IsHalted()  returns FALSE (0000ms, 0156ms total)
T0DE4 000:261 JLINK_IsHalted()  returns FALSE (0000ms, 0156ms total)
T0DE4 000:263 JLINK_IsHalted() -- CPU_ReadMem(2 bytes @ 0x20000000)  returns TRUE (0006ms, 0162ms total)
T0DE4 000:269 JLINK_ReadReg(R15)  returns 0x20000000 (0000ms, 0156ms total)
T0DE4 000:269 JLINK_ClrBPEx(BPHandle = 0x00000007)  returns 0x00 (0000ms, 0156ms total)
T0DE4 000:269 JLINK_ReadReg(R0)  returns 0x00000000 (0000ms, 0156ms total)
T0DE4 000:270 JLINK_WriteReg(R0, 0x08003000)  returns 0x00 (0000ms, 0156ms total)
T0DE4 000:270 JLINK_WriteReg(R1, 0x00001000)  returns 0x00 (0000ms, 0156ms total)
T0DE4 000:270 JLINK_WriteReg(R2, 0x000000FF)  returns 0x00 (0000ms, 0156ms total)
T0DE4 000:270 JLINK_WriteReg(R3, 0x00000000)  returns 0x00 (0000ms, 0156ms total)
T0DE4 000:270 JLINK_WriteReg(R4, 0x00000000)  returns 0x00 (0000ms, 0156ms total)
T0DE4 000:270 JLINK_WriteReg(R5, 0x00000000)  returns 0x00 (0000ms, 0156ms total)
T0DE4 000:270 JLINK_WriteReg(R6, 0x00000000)  returns 0x00 (0000ms, 0156ms total)
T0DE4 000:270 JLINK_WriteReg(R7, 0x00000000)  returns 0x00 (0000ms, 0156ms total)
T0DE4 000:270 JLINK_WriteReg(R8, 0x00000000)  returns 0x00 (0000ms, 0156ms total)
T0DE4 000:270 JLINK_WriteReg(R9, 0x20000230)  returns 0x00 (0000ms, 0156ms total)
T0DE4 000:270 JLINK_WriteReg(R10, 0x00000000)  returns 0x00 (0000ms, 0156ms total)
T0DE4 000:270 JLINK_WriteReg(R11, 0x00000000)  returns 0x00 (0000ms, 0156ms total)
T0DE4 000:270 JLINK_WriteReg(R12, 0x00000000)  returns 0x00 (0000ms, 0156ms total)
T0DE4 000:270 JLINK_WriteReg(R13, 0x20001000)  returns 0x00 (0000ms, 0156ms total)
T0DE4 000:270 JLINK_WriteReg(R14, 0x20000001)  returns 0x00 (0000ms, 0156ms total)
T0DE4 000:270 JLINK_WriteReg(R15, 0x20000020)  returns 0x00 (0000ms, 0156ms total)
T0DE4 000:270 JLINK_WriteReg(XPSR, 0x01000000)  returns 0x00 (0000ms, 0156ms total)
T0DE4 000:270 JLINK_WriteReg(MSP, 0x20001000)  returns 0x00 (0000ms, 0156ms total)
T0DE4 000:270 JLINK_WriteReg(PSP, 0x20001000)  returns 0x00 (0000ms, 0156ms total)
T0DE4 000:270 JLINK_WriteReg(CFBP, 0x00000000)  returns 0x00 (0000ms, 0156ms total)
T0DE4 000:270 JLINK_SetBPEx(Addr = 0x20000000, Type = 0xFFFFFFF2)  returns 0x00000008 (0000ms, 0156ms total)
T0DE4 000:270 JLINK_Go() (0002ms, 0158ms total)
T0DE4 000:272 JLINK_IsHalted() -- CPU_ReadMem(2 bytes @ 0x20000000)  returns TRUE (0008ms, 0166ms total)
T0DE4 000:280 JLINK_ReadReg(R15)  returns 0x20000000 (0000ms, 0158ms total)
T0DE4 000:280 JLINK_ClrBPEx(BPHandle = 0x00000008)  returns 0x00 (0000ms, 0158ms total)
T0DE4 000:280 JLINK_ReadReg(R0)  returns 0x00000001 (0000ms, 0158ms total)
T0DE4 000:280 JLINK_WriteReg(R0, 0x08003000)  returns 0x00 (0000ms, 0158ms total)
T0DE4 000:280 JLINK_WriteReg(R1, 0x00001000)  returns 0x00 (0000ms, 0158ms total)
T0DE4 000:280 JLINK_WriteReg(R2, 0x000000FF)  returns 0x00 (0000ms, 0158ms total)
T0DE4 000:280 JLINK_WriteReg(R3, 0x00000000)  returns 0x00 (0000ms, 0158ms total)
T0DE4 000:280 JLINK_WriteReg(R4, 0x00000000)  returns 0x00 (0000ms, 0158ms total)
T0DE4 000:280 JLINK_WriteReg(R5, 0x00000000)  returns 0x00 (0000ms, 0158ms total)
T0DE4 000:280 JLINK_WriteReg(R6, 0x00000000)  returns 0x00 (0000ms, 0158ms total)
T0DE4 000:280 JLINK_WriteReg(R7, 0x00000000)  returns 0x00 (0000ms, 0158ms total)
T0DE4 000:280 JLINK_WriteReg(R8, 0x00000000)  returns 0x00 (0000ms, 0158ms total)
T0DE4 000:280 JLINK_WriteReg(R9, 0x20000230)  returns 0x00 (0000ms, 0158ms total)
T0DE4 000:280 JLINK_WriteReg(R10, 0x00000000)  returns 0x00 (0000ms, 0158ms total)
T0DE4 000:280 JLINK_WriteReg(R11, 0x00000000)  returns 0x00 (0000ms, 0158ms total)
T0DE4 000:280 JLINK_WriteReg(R12, 0x00000000)  returns 0x00 (0000ms, 0158ms total)
T0DE4 000:280 JLINK_WriteReg(R13, 0x20001000)  returns 0x00 (0000ms, 0158ms total)
T0DE4 000:280 JLINK_WriteReg(R14, 0x20000001)  returns 0x00 (0000ms, 0158ms total)
T0DE4 000:280 JLINK_WriteReg(R15, 0x200000EC)  returns 0x00 (0000ms, 0158ms total)
T0DE4 000:280 JLINK_WriteReg(XPSR, 0x01000000)  returns 0x00 (0000ms, 0158ms total)
T0DE4 000:280 JLINK_WriteReg(MSP, 0x20001000)  returns 0x00 (0000ms, 0158ms total)
T0DE4 000:280 JLINK_WriteReg(PSP, 0x20001000)  returns 0x00 (0000ms, 0158ms total)
T0DE4 000:280 JLINK_WriteReg(CFBP, 0x00000000)  returns 0x00 (0000ms, 0158ms total)
T0DE4 000:280 JLINK_SetBPEx(Addr = 0x20000000, Type = 0xFFFFFFF2)  returns 0x00000009 (0000ms, 0158ms total)
T0DE4 000:280 JLINK_Go() (0001ms, 0159ms total)
T0DE4 000:281 JLINK_IsHalted()  returns FALSE (0001ms, 0160ms total)
T0DE4 000:287 JLINK_IsHalted()  returns FALSE (0000ms, 0159ms total)
T0DE4 000:289 JLINK_IsHalted()  returns FALSE (0001ms, 0160ms total)
T0DE4 000:292 JLINK_IsHalted()  returns FALSE (0000ms, 0159ms total)
T0DE4 000:294 JLINK_IsHalted()  returns FALSE (0000ms, 0159ms total)
T0DE4 000:296 JLINK_IsHalted() -- CPU_ReadMem(2 bytes @ 0x20000000)  returns TRUE (0006ms, 0165ms total)
T0DE4 000:302 JLINK_ReadReg(R15)  returns 0x20000000 (0000ms, 0159ms total)
T0DE4 000:302 JLINK_ClrBPEx(BPHandle = 0x00000009)  returns 0x00 (0000ms, 0159ms total)
T0DE4 000:302 JLINK_ReadReg(R0)  returns 0x00000000 (0000ms, 0159ms total)
T0DE4 000:302 JLINK_WriteReg(R0, 0x08004000)  returns 0x00 (0000ms, 0159ms total)
T0DE4 000:302 JLINK_WriteReg(R1, 0x00001000)  returns 0x00 (0000ms, 0159ms total)
T0DE4 000:302 JLINK_WriteReg(R2, 0x000000FF)  returns 0x00 (0000ms, 0159ms total)
T0DE4 000:302 JLINK_WriteReg(R3, 0x00000000)  returns 0x00 (0000ms, 0159ms total)
T0DE4 000:302 JLINK_WriteReg(R4, 0x00000000)  returns 0x00 (0000ms, 0159ms total)
T0DE4 000:302 JLINK_WriteReg(R5, 0x00000000)  returns 0x00 (0000ms, 0159ms total)
T0DE4 000:302 JLINK_WriteReg(R6, 0x00000000)  returns 0x00 (0000ms, 0159ms total)
T0DE4 000:302 JLINK_WriteReg(R7, 0x00000000)  returns 0x00 (0000ms, 0159ms total)
T0DE4 000:302 JLINK_WriteReg(R8, 0x00000000)  returns 0x00 (0000ms, 0159ms total)
T0DE4 000:302 JLINK_WriteReg(R9, 0x20000230)  returns 0x00 (0000ms, 0159ms total)
T0DE4 000:302 JLINK_WriteReg(R10, 0x00000000)  returns 0x00 (0000ms, 0159ms total)
T0DE4 000:302 JLINK_WriteReg(R11, 0x00000000)  returns 0x00 (0000ms, 0159ms total)
T0DE4 000:302 JLINK_WriteReg(R12, 0x00000000)  returns 0x00 (0000ms, 0159ms total)
T0DE4 000:302 JLINK_WriteReg(R13, 0x20001000)  returns 0x00 (0000ms, 0159ms total)
T0DE4 000:302 JLINK_WriteReg(R14, 0x20000001)  returns 0x00 (0000ms, 0159ms total)
T0DE4 000:302 JLINK_WriteReg(R15, 0x20000020)  returns 0x00 (0000ms, 0159ms total)
T0DE4 000:302 JLINK_WriteReg(XPSR, 0x01000000)  returns 0x00 (0000ms, 0159ms total)
T0DE4 000:302 JLINK_WriteReg(MSP, 0x20001000)  returns 0x00 (0000ms, 0159ms total)
T0DE4 000:302 JLINK_WriteReg(PSP, 0x20001000)  returns 0x00 (0000ms, 0159ms total)
T0DE4 000:302 JLINK_WriteReg(CFBP, 0x00000000)  returns 0x00 (0000ms, 0159ms total)
T0DE4 000:302 JLINK_SetBPEx(Addr = 0x20000000, Type = 0xFFFFFFF2)  returns 0x0000000A (0000ms, 0159ms total)
T0DE4 000:302 JLINK_Go() (0003ms, 0162ms total)
T0DE4 000:305 JLINK_IsHalted() -- CPU_ReadMem(2 bytes @ 0x20000000)  returns TRUE (0007ms, 0169ms total)
T0DE4 000:312 JLINK_ReadReg(R15)  returns 0x20000000 (0000ms, 0162ms total)
T0DE4 000:312 JLINK_ClrBPEx(BPHandle = 0x0000000A)  returns 0x00 (0000ms, 0162ms total)
T0DE4 000:312 JLINK_ReadReg(R0)  returns 0x00000001 (0000ms, 0162ms total)
T0DE4 000:312 JLINK_WriteReg(R0, 0x08004000)  returns 0x00 (0000ms, 0162ms total)
T0DE4 000:312 JLINK_WriteReg(R1, 0x00001000)  returns 0x00 (0000ms, 0162ms total)
T0DE4 000:312 JLINK_WriteReg(R2, 0x000000FF)  returns 0x00 (0000ms, 0162ms total)
T0DE4 000:312 JLINK_WriteReg(R3, 0x00000000)  returns 0x00 (0000ms, 0162ms total)
T0DE4 000:312 JLINK_WriteReg(R4, 0x00000000)  returns 0x00 (0000ms, 0162ms total)
T0DE4 000:312 JLINK_WriteReg(R5, 0x00000000)  returns 0x00 (0000ms, 0162ms total)
T0DE4 000:312 JLINK_WriteReg(R6, 0x00000000)  returns 0x00 (0000ms, 0162ms total)
T0DE4 000:312 JLINK_WriteReg(R7, 0x00000000)  returns 0x00 (0000ms, 0162ms total)
T0DE4 000:312 JLINK_WriteReg(R8, 0x00000000)  returns 0x00 (0000ms, 0162ms total)
T0DE4 000:312 JLINK_WriteReg(R9, 0x20000230)  returns 0x00 (0000ms, 0162ms total)
T0DE4 000:312 JLINK_WriteReg(R10, 0x00000000)  returns 0x00 (0000ms, 0162ms total)
T0DE4 000:312 JLINK_WriteReg(R11, 0x00000000)  returns 0x00 (0000ms, 0162ms total)
T0DE4 000:312 JLINK_WriteReg(R12, 0x00000000)  returns 0x00 (0000ms, 0162ms total)
T0DE4 000:312 JLINK_WriteReg(R13, 0x20001000)  returns 0x00 (0000ms, 0162ms total)
T0DE4 000:312 JLINK_WriteReg(R14, 0x20000001)  returns 0x00 (0000ms, 0162ms total)
T0DE4 000:312 JLINK_WriteReg(R15, 0x200000EC)  returns 0x00 (0000ms, 0162ms total)
T0DE4 000:312 JLINK_WriteReg(XPSR, 0x01000000)  returns 0x00 (0000ms, 0162ms total)
T0DE4 000:312 JLINK_WriteReg(MSP, 0x20001000)  returns 0x00 (0000ms, 0162ms total)
T0DE4 000:312 JLINK_WriteReg(PSP, 0x20001000)  returns 0x00 (0000ms, 0162ms total)
T0DE4 000:312 JLINK_WriteReg(CFBP, 0x00000000)  returns 0x00 (0000ms, 0162ms total)
T0DE4 000:312 JLINK_SetBPEx(Addr = 0x20000000, Type = 0xFFFFFFF2)  returns 0x0000000B (0000ms, 0162ms total)
T0DE4 000:312 JLINK_Go() (0001ms, 0163ms total)
T0DE4 000:313 JLINK_IsHalted()  returns FALSE (0001ms, 0164ms total)
T0DE4 000:319 JLINK_IsHalted()  returns FALSE (0001ms, 0164ms total)
T0DE4 000:322 JLINK_IsHalted()  returns FALSE (0001ms, 0164ms total)
T0DE4 000:325 JLINK_IsHalted()  returns FALSE (0001ms, 0164ms total)
T0DE4 000:328 JLINK_IsHalted() -- CPU_ReadMem(2 bytes @ 0x20000000)  returns TRUE (0007ms, 0170ms total)
T0DE4 000:335 JLINK_ReadReg(R15)  returns 0x20000000 (0000ms, 0163ms total)
T0DE4 000:335 JLINK_ClrBPEx(BPHandle = 0x0000000B)  returns 0x00 (0000ms, 0163ms total)
T0DE4 000:335 JLINK_ReadReg(R0)  returns 0x00000000 (0000ms, 0163ms total)
T0DE4 000:335 JLINK_WriteReg(R0, 0x08005000)  returns 0x00 (0000ms, 0163ms total)
T0DE4 000:335 JLINK_WriteReg(R1, 0x00001000)  returns 0x00 (0000ms, 0163ms total)
T0DE4 000:335 JLINK_WriteReg(R2, 0x000000FF)  returns 0x00 (0000ms, 0163ms total)
T0DE4 000:335 JLINK_WriteReg(R3, 0x00000000)  returns 0x00 (0000ms, 0163ms total)
T0DE4 000:335 JLINK_WriteReg(R4, 0x00000000)  returns 0x00 (0000ms, 0163ms total)
T0DE4 000:335 JLINK_WriteReg(R5, 0x00000000)  returns 0x00 (0000ms, 0163ms total)
T0DE4 000:335 JLINK_WriteReg(R6, 0x00000000)  returns 0x00 (0000ms, 0163ms total)
T0DE4 000:335 JLINK_WriteReg(R7, 0x00000000)  returns 0x00 (0000ms, 0163ms total)
T0DE4 000:335 JLINK_WriteReg(R8, 0x00000000)  returns 0x00 (0000ms, 0163ms total)
T0DE4 000:335 JLINK_WriteReg(R9, 0x20000230)  returns 0x00 (0000ms, 0163ms total)
T0DE4 000:335 JLINK_WriteReg(R10, 0x00000000)  returns 0x00 (0000ms, 0163ms total)
T0DE4 000:335 JLINK_WriteReg(R11, 0x00000000)  returns 0x00 (0000ms, 0163ms total)
T0DE4 000:335 JLINK_WriteReg(R12, 0x00000000)  returns 0x00 (0000ms, 0163ms total)
T0DE4 000:335 JLINK_WriteReg(R13, 0x20001000)  returns 0x00 (0000ms, 0163ms total)
T0DE4 000:335 JLINK_WriteReg(R14, 0x20000001)  returns 0x00 (0000ms, 0163ms total)
T0DE4 000:335 JLINK_WriteReg(R15, 0x20000020)  returns 0x00 (0000ms, 0163ms total)
T0DE4 000:335 JLINK_WriteReg(XPSR, 0x01000000)  returns 0x00 (0000ms, 0163ms total)
T0DE4 000:335 JLINK_WriteReg(MSP, 0x20001000)  returns 0x00 (0000ms, 0163ms total)
T0DE4 000:335 JLINK_WriteReg(PSP, 0x20001000)  returns 0x00 (0000ms, 0163ms total)
T0DE4 000:335 JLINK_WriteReg(CFBP, 0x00000000)  returns 0x00 (0000ms, 0163ms total)
T0DE4 000:335 JLINK_SetBPEx(Addr = 0x20000000, Type = 0xFFFFFFF2)  returns 0x0000000C (0000ms, 0163ms total)
T0DE4 000:335 JLINK_Go() (0002ms, 0165ms total)
T0DE4 000:337 JLINK_IsHalted() -- CPU_ReadMem(2 bytes @ 0x20000000)  returns TRUE (0007ms, 0172ms total)
T0DE4 000:344 JLINK_ReadReg(R15)  returns 0x20000000 (0000ms, 0165ms total)
T0DE4 000:344 JLINK_ClrBPEx(BPHandle = 0x0000000C)  returns 0x00 (0000ms, 0165ms total)
T0DE4 000:344 JLINK_ReadReg(R0)  returns 0x00000001 (0000ms, 0165ms total)
T0DE4 000:344 JLINK_WriteReg(R0, 0x08005000)  returns 0x00 (0000ms, 0165ms total)
T0DE4 000:344 JLINK_WriteReg(R1, 0x00001000)  returns 0x00 (0000ms, 0165ms total)
T0DE4 000:344 JLINK_WriteReg(R2, 0x000000FF)  returns 0x00 (0000ms, 0165ms total)
T0DE4 000:344 JLINK_WriteReg(R3, 0x00000000)  returns 0x00 (0000ms, 0165ms total)
T0DE4 000:344 JLINK_WriteReg(R4, 0x00000000)  returns 0x00 (0000ms, 0165ms total)
T0DE4 000:344 JLINK_WriteReg(R5, 0x00000000)  returns 0x00 (0000ms, 0165ms total)
T0DE4 000:344 JLINK_WriteReg(R6, 0x00000000)  returns 0x00 (0000ms, 0165ms total)
T0DE4 000:344 JLINK_WriteReg(R7, 0x00000000)  returns 0x00 (0000ms, 0165ms total)
T0DE4 000:344 JLINK_WriteReg(R8, 0x00000000)  returns 0x00 (0000ms, 0165ms total)
T0DE4 000:344 JLINK_WriteReg(R9, 0x20000230)  returns 0x00 (0000ms, 0165ms total)
T0DE4 000:344 JLINK_WriteReg(R10, 0x00000000)  returns 0x00 (0000ms, 0165ms total)
T0DE4 000:344 JLINK_WriteReg(R11, 0x00000000)  returns 0x00 (0000ms, 0165ms total)
T0DE4 000:344 JLINK_WriteReg(R12, 0x00000000)  returns 0x00 (0000ms, 0165ms total)
T0DE4 000:344 JLINK_WriteReg(R13, 0x20001000)  returns 0x00 (0000ms, 0165ms total)
T0DE4 000:344 JLINK_WriteReg(R14, 0x20000001)  returns 0x00 (0000ms, 0165ms total)
T0DE4 000:344 JLINK_WriteReg(R15, 0x200000EC)  returns 0x00 (0000ms, 0165ms total)
T0DE4 000:344 JLINK_WriteReg(XPSR, 0x01000000)  returns 0x00 (0000ms, 0165ms total)
T0DE4 000:344 JLINK_WriteReg(MSP, 0x20001000)  returns 0x00 (0000ms, 0165ms total)
T0DE4 000:344 JLINK_WriteReg(PSP, 0x20001000)  returns 0x00 (0000ms, 0165ms total)
T0DE4 000:344 JLINK_WriteReg(CFBP, 0x00000000)  returns 0x00 (0000ms, 0165ms total)
T0DE4 000:344 JLINK_SetBPEx(Addr = 0x20000000, Type = 0xFFFFFFF2)  returns 0x0000000D (0000ms, 0165ms total)
T0DE4 000:344 JLINK_Go() (0002ms, 0167ms total)
T0DE4 000:346 JLINK_IsHalted()  returns FALSE (0001ms, 0168ms total)
T0DE4 000:350 JLINK_IsHalted()  returns FALSE (0000ms, 0167ms total)
T0DE4 000:352 JLINK_IsHalted()  returns FALSE (0000ms, 0167ms total)
T0DE4 000:354 JLINK_IsHalted()  returns FALSE (0000ms, 0167ms total)
T0DE4 000:356 JLINK_IsHalted()  returns FALSE (0000ms, 0167ms total)
T0DE4 000:359 JLINK_IsHalted() -- CPU_ReadMem(2 bytes @ 0x20000000)  returns TRUE (0007ms, 0174ms total)
T0DE4 000:366 JLINK_ReadReg(R15)  returns 0x20000000 (0000ms, 0167ms total)
T0DE4 000:366 JLINK_ClrBPEx(BPHandle = 0x0000000D)  returns 0x00 (0000ms, 0167ms total)
T0DE4 000:366 JLINK_ReadReg(R0)  returns 0x00000000 (0000ms, 0167ms total)
T0DE4 000:367 JLINK_WriteReg(R0, 0x08006000)  returns 0x00 (0000ms, 0167ms total)
T0DE4 000:367 JLINK_WriteReg(R1, 0x00001000)  returns 0x00 (0000ms, 0167ms total)
T0DE4 000:367 JLINK_WriteReg(R2, 0x000000FF)  returns 0x00 (0000ms, 0167ms total)
T0DE4 000:367 JLINK_WriteReg(R3, 0x00000000)  returns 0x00 (0000ms, 0167ms total)
T0DE4 000:367 JLINK_WriteReg(R4, 0x00000000)  returns 0x00 (0000ms, 0167ms total)
T0DE4 000:367 JLINK_WriteReg(R5, 0x00000000)  returns 0x00 (0000ms, 0167ms total)
T0DE4 000:367 JLINK_WriteReg(R6, 0x00000000)  returns 0x00 (0000ms, 0167ms total)
T0DE4 000:367 JLINK_WriteReg(R7, 0x00000000)  returns 0x00 (0000ms, 0167ms total)
T0DE4 000:367 JLINK_WriteReg(R8, 0x00000000)  returns 0x00 (0000ms, 0167ms total)
T0DE4 000:367 JLINK_WriteReg(R9, 0x20000230)  returns 0x00 (0000ms, 0167ms total)
T0DE4 000:367 JLINK_WriteReg(R10, 0x00000000)  returns 0x00 (0000ms, 0167ms total)
T0DE4 000:367 JLINK_WriteReg(R11, 0x00000000)  returns 0x00 (0000ms, 0167ms total)
T0DE4 000:367 JLINK_WriteReg(R12, 0x00000000)  returns 0x00 (0000ms, 0167ms total)
T0DE4 000:367 JLINK_WriteReg(R13, 0x20001000)  returns 0x00 (0000ms, 0167ms total)
T0DE4 000:367 JLINK_WriteReg(R14, 0x20000001)  returns 0x00 (0000ms, 0167ms total)
T0DE4 000:367 JLINK_WriteReg(R15, 0x20000020)  returns 0x00 (0000ms, 0167ms total)
T0DE4 000:367 JLINK_WriteReg(XPSR, 0x01000000)  returns 0x00 (0000ms, 0167ms total)
T0DE4 000:367 JLINK_WriteReg(MSP, 0x20001000)  returns 0x00 (0000ms, 0167ms total)
T0DE4 000:367 JLINK_WriteReg(PSP, 0x20001000)  returns 0x00 (0000ms, 0167ms total)
T0DE4 000:367 JLINK_WriteReg(CFBP, 0x00000000)  returns 0x00 (0000ms, 0167ms total)
T0DE4 000:367 JLINK_SetBPEx(Addr = 0x20000000, Type = 0xFFFFFFF2)  returns 0x0000000E (0000ms, 0167ms total)
T0DE4 000:367 JLINK_Go() (0002ms, 0169ms total)
T0DE4 000:369 JLINK_IsHalted() -- CPU_ReadMem(2 bytes @ 0x20000000)  returns TRUE (0006ms, 0175ms total)
T0DE4 000:375 JLINK_ReadReg(R15)  returns 0x20000000 (0000ms, 0169ms total)
T0DE4 000:375 JLINK_ClrBPEx(BPHandle = 0x0000000E)  returns 0x00 (0000ms, 0169ms total)
T0DE4 000:375 JLINK_ReadReg(R0)  returns 0x00000001 (0000ms, 0169ms total)
T0DE4 000:375 JLINK_WriteReg(R0, 0x08006000)  returns 0x00 (0000ms, 0169ms total)
T0DE4 000:375 JLINK_WriteReg(R1, 0x00001000)  returns 0x00 (0000ms, 0169ms total)
T0DE4 000:375 JLINK_WriteReg(R2, 0x000000FF)  returns 0x00 (0000ms, 0169ms total)
T0DE4 000:375 JLINK_WriteReg(R3, 0x00000000)  returns 0x00 (0000ms, 0169ms total)
T0DE4 000:375 JLINK_WriteReg(R4, 0x00000000)  returns 0x00 (0000ms, 0169ms total)
T0DE4 000:375 JLINK_WriteReg(R5, 0x00000000)  returns 0x00 (0000ms, 0169ms total)
T0DE4 000:375 JLINK_WriteReg(R6, 0x00000000)  returns 0x00 (0000ms, 0169ms total)
T0DE4 000:375 JLINK_WriteReg(R7, 0x00000000)  returns 0x00 (0000ms, 0169ms total)
T0DE4 000:375 JLINK_WriteReg(R8, 0x00000000)  returns 0x00 (0000ms, 0169ms total)
T0DE4 000:375 JLINK_WriteReg(R9, 0x20000230)  returns 0x00 (0000ms, 0169ms total)
T0DE4 000:375 JLINK_WriteReg(R10, 0x00000000)  returns 0x00 (0000ms, 0169ms total)
T0DE4 000:375 JLINK_WriteReg(R11, 0x00000000)  returns 0x00 (0000ms, 0169ms total)
T0DE4 000:375 JLINK_WriteReg(R12, 0x00000000)  returns 0x00 (0000ms, 0169ms total)
T0DE4 000:375 JLINK_WriteReg(R13, 0x20001000)  returns 0x00 (0000ms, 0169ms total)
T0DE4 000:375 JLINK_WriteReg(R14, 0x20000001)  returns 0x00 (0000ms, 0169ms total)
T0DE4 000:375 JLINK_WriteReg(R15, 0x200000EC)  returns 0x00 (0000ms, 0169ms total)
T0DE4 000:375 JLINK_WriteReg(XPSR, 0x01000000)  returns 0x00 (0000ms, 0169ms total)
T0DE4 000:375 JLINK_WriteReg(MSP, 0x20001000)  returns 0x00 (0000ms, 0169ms total)
T0DE4 000:375 JLINK_WriteReg(PSP, 0x20001000)  returns 0x00 (0000ms, 0169ms total)
T0DE4 000:375 JLINK_WriteReg(CFBP, 0x00000000)  returns 0x00 (0000ms, 0169ms total)
T0DE4 000:375 JLINK_SetBPEx(Addr = 0x20000000, Type = 0xFFFFFFF2)  returns 0x0000000F (0000ms, 0169ms total)
T0DE4 000:375 JLINK_Go() (0002ms, 0171ms total)
T0DE4 000:377 JLINK_IsHalted()  returns FALSE (0001ms, 0172ms total)
T0DE4 000:383 JLINK_IsHalted()  returns FALSE (0000ms, 0171ms total)
T0DE4 000:385 JLINK_IsHalted()  returns FALSE (0000ms, 0171ms total)
T0DE4 000:387 JLINK_IsHalted()  returns FALSE (0001ms, 0172ms total)
T0DE4 000:390 JLINK_IsHalted() -- CPU_ReadMem(2 bytes @ 0x20000000)  returns TRUE (0006ms, 0177ms total)
T0DE4 000:396 JLINK_ReadReg(R15)  returns 0x20000000 (0000ms, 0171ms total)
T0DE4 000:396 JLINK_ClrBPEx(BPHandle = 0x0000000F)  returns 0x00 (0000ms, 0171ms total)
T0DE4 000:396 JLINK_ReadReg(R0)  returns 0x00000000 (0000ms, 0171ms total)
T0DE4 000:397 JLINK_WriteReg(R0, 0x08007000)  returns 0x00 (0000ms, 0171ms total)
T0DE4 000:397 JLINK_WriteReg(R1, 0x00001000)  returns 0x00 (0000ms, 0171ms total)
T0DE4 000:397 JLINK_WriteReg(R2, 0x000000FF)  returns 0x00 (0000ms, 0171ms total)
T0DE4 000:397 JLINK_WriteReg(R3, 0x00000000)  returns 0x00 (0000ms, 0171ms total)
T0DE4 000:397 JLINK_WriteReg(R4, 0x00000000)  returns 0x00 (0000ms, 0171ms total)
T0DE4 000:397 JLINK_WriteReg(R5, 0x00000000)  returns 0x00 (0000ms, 0171ms total)
T0DE4 000:397 JLINK_WriteReg(R6, 0x00000000)  returns 0x00 (0000ms, 0171ms total)
T0DE4 000:397 JLINK_WriteReg(R7, 0x00000000)  returns 0x00 (0000ms, 0171ms total)
T0DE4 000:397 JLINK_WriteReg(R8, 0x00000000)  returns 0x00 (0000ms, 0171ms total)
T0DE4 000:397 JLINK_WriteReg(R9, 0x20000230)  returns 0x00 (0000ms, 0171ms total)
T0DE4 000:397 JLINK_WriteReg(R10, 0x00000000)  returns 0x00 (0000ms, 0171ms total)
T0DE4 000:397 JLINK_WriteReg(R11, 0x00000000)  returns 0x00 (0000ms, 0171ms total)
T0DE4 000:397 JLINK_WriteReg(R12, 0x00000000)  returns 0x00 (0000ms, 0171ms total)
T0DE4 000:397 JLINK_WriteReg(R13, 0x20001000)  returns 0x00 (0000ms, 0171ms total)
T0DE4 000:397 JLINK_WriteReg(R14, 0x20000001)  returns 0x00 (0000ms, 0171ms total)
T0DE4 000:397 JLINK_WriteReg(R15, 0x20000020)  returns 0x00 (0000ms, 0171ms total)
T0DE4 000:397 JLINK_WriteReg(XPSR, 0x01000000)  returns 0x00 (0000ms, 0171ms total)
T0DE4 000:397 JLINK_WriteReg(MSP, 0x20001000)  returns 0x00 (0000ms, 0171ms total)
T0DE4 000:397 JLINK_WriteReg(PSP, 0x20001000)  returns 0x00 (0000ms, 0171ms total)
T0DE4 000:397 JLINK_WriteReg(CFBP, 0x00000000)  returns 0x00 (0000ms, 0171ms total)
T0DE4 000:397 JLINK_SetBPEx(Addr = 0x20000000, Type = 0xFFFFFFF2)  returns 0x00000010 (0000ms, 0171ms total)
T0DE4 000:397 JLINK_Go() (0002ms, 0173ms total)
T0DE4 000:399 JLINK_IsHalted() -- CPU_ReadMem(2 bytes @ 0x20000000)  returns TRUE (0006ms, 0179ms total)
T0DE4 000:405 JLINK_ReadReg(R15)  returns 0x20000000 (0000ms, 0173ms total)
T0DE4 000:405 JLINK_ClrBPEx(BPHandle = 0x00000010)  returns 0x00 (0000ms, 0173ms total)
T0DE4 000:405 JLINK_ReadReg(R0)  returns 0x00000001 (0000ms, 0173ms total)
T0DE4 000:405 JLINK_WriteReg(R0, 0x08007000)  returns 0x00 (0000ms, 0173ms total)
T0DE4 000:405 JLINK_WriteReg(R1, 0x00001000)  returns 0x00 (0000ms, 0173ms total)
T0DE4 000:405 JLINK_WriteReg(R2, 0x000000FF)  returns 0x00 (0000ms, 0173ms total)
T0DE4 000:405 JLINK_WriteReg(R3, 0x00000000)  returns 0x00 (0001ms, 0174ms total)
T0DE4 000:406 JLINK_WriteReg(R4, 0x00000000)  returns 0x00 (0000ms, 0174ms total)
T0DE4 000:406 JLINK_WriteReg(R5, 0x00000000)  returns 0x00 (0000ms, 0174ms total)
T0DE4 000:406 JLINK_WriteReg(R6, 0x00000000)  returns 0x00 (0000ms, 0174ms total)
T0DE4 000:406 JLINK_WriteReg(R7, 0x00000000)  returns 0x00 (0000ms, 0174ms total)
T0DE4 000:406 JLINK_WriteReg(R8, 0x00000000)  returns 0x00 (0000ms, 0174ms total)
T0DE4 000:406 JLINK_WriteReg(R9, 0x20000230)  returns 0x00 (0000ms, 0174ms total)
T0DE4 000:406 JLINK_WriteReg(R10, 0x00000000)  returns 0x00 (0000ms, 0174ms total)
T0DE4 000:406 JLINK_WriteReg(R11, 0x00000000)  returns 0x00 (0000ms, 0174ms total)
T0DE4 000:406 JLINK_WriteReg(R12, 0x00000000)  returns 0x00 (0000ms, 0174ms total)
T0DE4 000:406 JLINK_WriteReg(R13, 0x20001000)  returns 0x00 (0000ms, 0174ms total)
T0DE4 000:406 JLINK_WriteReg(R14, 0x20000001)  returns 0x00 (0000ms, 0174ms total)
T0DE4 000:406 JLINK_WriteReg(R15, 0x200000EC)  returns 0x00 (0000ms, 0174ms total)
T0DE4 000:406 JLINK_WriteReg(XPSR, 0x01000000)  returns 0x00 (0000ms, 0174ms total)
T0DE4 000:406 JLINK_WriteReg(MSP, 0x20001000)  returns 0x00 (0000ms, 0174ms total)
T0DE4 000:406 JLINK_WriteReg(PSP, 0x20001000)  returns 0x00 (0000ms, 0174ms total)
T0DE4 000:406 JLINK_WriteReg(CFBP, 0x00000000)  returns 0x00 (0000ms, 0174ms total)
T0DE4 000:406 JLINK_SetBPEx(Addr = 0x20000000, Type = 0xFFFFFFF2)  returns 0x00000011 (0000ms, 0174ms total)
T0DE4 000:406 JLINK_Go() (0002ms, 0176ms total)
T0DE4 000:408 JLINK_IsHalted()  returns FALSE (0000ms, 0176ms total)
T0DE4 000:411 JLINK_IsHalted()  returns FALSE (0000ms, 0176ms total)
T0DE4 000:413 JLINK_IsHalted()  returns FALSE (0000ms, 0176ms total)
T0DE4 000:415 JLINK_IsHalted()  returns FALSE (0001ms, 0177ms total)
T0DE4 000:417 JLINK_IsHalted()  returns FALSE (0000ms, 0176ms total)
T0DE4 000:419 JLINK_IsHalted()  returns FALSE (0000ms, 0176ms total)
T0DE4 000:421 JLINK_IsHalted() -- CPU_ReadMem(2 bytes @ 0x20000000)  returns TRUE (0006ms, 0182ms total)
T0DE4 000:427 JLINK_ReadReg(R15)  returns 0x20000000 (0000ms, 0176ms total)
T0DE4 000:427 JLINK_ClrBPEx(BPHandle = 0x00000011)  returns 0x00 (0000ms, 0176ms total)
T0DE4 000:427 JLINK_ReadReg(R0)  returns 0x00000000 (0000ms, 0176ms total)
T0DE4 000:427 JLINK_WriteReg(R0, 0x08008000)  returns 0x00 (0000ms, 0176ms total)
T0DE4 000:427 JLINK_WriteReg(R1, 0x00001000)  returns 0x00 (0000ms, 0176ms total)
T0DE4 000:427 JLINK_WriteReg(R2, 0x000000FF)  returns 0x00 (0000ms, 0176ms total)
T0DE4 000:427 JLINK_WriteReg(R3, 0x00000000)  returns 0x00 (0000ms, 0176ms total)
T0DE4 000:427 JLINK_WriteReg(R4, 0x00000000)  returns 0x00 (0000ms, 0176ms total)
T0DE4 000:427 JLINK_WriteReg(R5, 0x00000000)  returns 0x00 (0000ms, 0176ms total)
T0DE4 000:427 JLINK_WriteReg(R6, 0x00000000)  returns 0x00 (0000ms, 0176ms total)
T0DE4 000:427 JLINK_WriteReg(R7, 0x00000000)  returns 0x00 (0000ms, 0176ms total)
T0DE4 000:427 JLINK_WriteReg(R8, 0x00000000)  returns 0x00 (0000ms, 0176ms total)
T0DE4 000:427 JLINK_WriteReg(R9, 0x20000230)  returns 0x00 (0000ms, 0176ms total)
T0DE4 000:427 JLINK_WriteReg(R10, 0x00000000)  returns 0x00 (0000ms, 0176ms total)
T0DE4 000:427 JLINK_WriteReg(R11, 0x00000000)  returns 0x00 (0000ms, 0176ms total)
T0DE4 000:427 JLINK_WriteReg(R12, 0x00000000)  returns 0x00 (0000ms, 0176ms total)
T0DE4 000:427 JLINK_WriteReg(R13, 0x20001000)  returns 0x00 (0000ms, 0176ms total)
T0DE4 000:427 JLINK_WriteReg(R14, 0x20000001)  returns 0x00 (0000ms, 0176ms total)
T0DE4 000:427 JLINK_WriteReg(R15, 0x20000020)  returns 0x00 (0000ms, 0176ms total)
T0DE4 000:427 JLINK_WriteReg(XPSR, 0x01000000)  returns 0x00 (0000ms, 0176ms total)
T0DE4 000:427 JLINK_WriteReg(MSP, 0x20001000)  returns 0x00 (0000ms, 0176ms total)
T0DE4 000:427 JLINK_WriteReg(PSP, 0x20001000)  returns 0x00 (0000ms, 0176ms total)
T0DE4 000:427 JLINK_WriteReg(CFBP, 0x00000000)  returns 0x00 (0000ms, 0176ms total)
T0DE4 000:427 JLINK_SetBPEx(Addr = 0x20000000, Type = 0xFFFFFFF2)  returns 0x00000012 (0000ms, 0176ms total)
T0DE4 000:427 JLINK_Go() (0003ms, 0179ms total)
T0DE4 000:430 JLINK_IsHalted() -- CPU_ReadMem(2 bytes @ 0x20000000)  returns TRUE (0006ms, 0185ms total)
T0DE4 000:436 JLINK_ReadReg(R15)  returns 0x20000000 (0000ms, 0179ms total)
T0DE4 000:436 JLINK_ClrBPEx(BPHandle = 0x00000012)  returns 0x00 (0000ms, 0179ms total)
T0DE4 000:436 JLINK_ReadReg(R0)  returns 0x00000001 (0000ms, 0179ms total)
T0DE4 000:436 JLINK_WriteReg(R0, 0x08008000)  returns 0x00 (0000ms, 0179ms total)
T0DE4 000:436 JLINK_WriteReg(R1, 0x00001000)  returns 0x00 (0000ms, 0179ms total)
T0DE4 000:436 JLINK_WriteReg(R2, 0x000000FF)  returns 0x00 (0000ms, 0179ms total)
T0DE4 000:436 JLINK_WriteReg(R3, 0x00000000)  returns 0x00 (0000ms, 0179ms total)
